time	V(v_10)	V(v_20)	V(v_30)	V(v_40)	V(v_s)
0.000000000000000e+000	0.000000e+000	0.000000e+000	0.000000e+000	0.000000e+000	0.000000e+000
4.163001803230101e-005	3.121980e-002	2.081501e-002	1.041022e-002	5.422377e-006	4.163002e-002
8.326003606460203e-005	6.243420e-002	4.163002e-002	2.082583e-002	2.165331e-005	8.326003e-002
1.248900540969030e-004	9.364320e-002	6.244503e-002	3.124686e-002	4.869281e-005	1.248901e-001
1.665200721292041e-004	1.248468e-001	8.326003e-002	4.167329e-002	8.654086e-005	1.665201e-001
2.081500901615051e-004	1.560450e-001	1.040750e-001	5.210512e-002	1.351975e-004	2.081501e-001
2.497801081938061e-004	1.872377e-001	1.248901e-001	6.254236e-002	1.946626e-004	2.497801e-001
2.914101262261070e-004	2.184251e-001	1.457051e-001	7.298500e-002	2.649364e-004	2.914101e-001
5.827530542078643e-004	4.365657e-001	2.913765e-001	1.461874e-001	9.982127e-004	5.827531e-001
1.000000000000000e-003	7.487540e-001	4.999994e-001	2.512451e-001	2.491268e-003	1.000000e+000
4.613352218850807e-003	7.399551e-001	4.999997e-001	2.600444e-001	2.008934e-002	1.000000e+000
8.226704437701612e-003	7.314423e-001	4.999999e-001	2.685575e-001	3.711518e-002	1.000000e+000
1.184005665655242e-002	7.232156e-001	5.000000e-001	2.767844e-001	5.356877e-002	1.000000e+000
1.545340887540323e-002	7.152750e-001	5.000001e-001	2.847252e-001	6.945011e-002	1.000000e+000
1.906676109425403e-002	7.076205e-001	5.000001e-001	2.923797e-001	8.475921e-002	1.000000e+000
2.268011331310484e-002	7.002520e-001	5.000001e-001	2.997481e-001	9.949607e-002	1.000000e+000
2.629346553195564e-002	6.931697e-001	5.000000e-001	3.068303e-001	1.136607e-001	1.000000e+000
3.386489410338422e-002	6.792530e-001	5.000000e-001	3.207470e-001	1.414941e-001	1.000000e+000
4.143632267481280e-002	6.661917e-001	5.000000e-001	3.338083e-001	1.676166e-001	1.000000e+000
4.900775124624138e-002	6.539859e-001	5.000000e-001	3.460141e-001	1.920282e-001	1.000000e+000
5.657917981766996e-002	6.426355e-001	5.000000e-001	3.573645e-001	2.147289e-001	1.000000e+000
6.415060838909854e-002	6.321406e-001	5.000000e-001	3.678594e-001	2.357187e-001	1.000000e+000
7.172203696052712e-002	6.225012e-001	5.000000e-001	3.774988e-001	2.549977e-001	1.000000e+000
7.929346553195568e-002	6.137171e-001	5.000000e-001	3.862829e-001	2.725657e-001	1.000000e+000
9.143632267481285e-002	6.010763e-001	5.000000e-001	3.989237e-001	2.978474e-001	1.000000e+000
1.035791798176700e-001	5.895504e-001	5.000000e-001	4.104496e-001	3.208992e-001	1.000000e+000
1.157220369605272e-001	5.791394e-001	5.000000e-001	4.208606e-001	3.417212e-001	1.000000e+000
1.278648941033843e-001	5.698434e-001	5.000000e-001	4.301567e-001	3.603133e-001	1.000000e+000
1.400077512462415e-001	5.616622e-001	5.000000e-001	4.383378e-001	3.766756e-001	1.000000e+000
1.521506083890986e-001	5.545960e-001	5.000000e-001	4.454039e-001	3.908079e-001	1.000000e+000
1.642934655319558e-001	5.486448e-001	5.000000e-001	4.513552e-001	4.027104e-001	1.000000e+000
1.695372561702478e-001	5.461789e-001	5.000000e-001	4.538211e-001	4.076422e-001	1.000000e+000
1.747810468085398e-001	5.438245e-001	5.000000e-001	4.561755e-001	4.123510e-001	1.000000e+000
1.800248374468319e-001	5.415815e-001	5.000000e-001	4.584185e-001	4.168370e-001	1.000000e+000
1.852686280851239e-001	5.394500e-001	5.000000e-001	4.605500e-001	4.211000e-001	1.000000e+000
1.905124187234160e-001	5.374299e-001	5.000000e-001	4.625700e-001	4.251401e-001	1.000000e+000
1.957562093617080e-001	5.355213e-001	5.000000e-001	4.644786e-001	4.289573e-001	1.000000e+000
2.010000000000000e-001	5.337242e-001	5.000000e-001	4.662758e-001	4.325516e-001	1.000000e+000
2.016000000000000e-001	8.405906e-002	2.000000e-001	3.159409e-001	4.318819e-001	4.000000e-001
2.020000000000000e-001	-2.153525e-001	-2.496994e-011	2.153525e-001	4.307050e-001	0.000000e+000
2.100342857142857e-001	-1.989427e-001	-1.373752e-011	1.989427e-001	3.978853e-001	0.000000e+000
2.180685714285715e-001	-1.835903e-001	-5.060241e-012	1.835903e-001	3.671807e-001	0.000000e+000
2.261028571428572e-001	-1.692955e-001	1.061902e-012	1.692955e-001	3.385910e-001	0.000000e+000
2.341371428571429e-001	-1.560582e-001	4.628906e-012	1.560582e-001	3.121164e-001	0.000000e+000
2.421714285714287e-001	-1.438784e-001	5.640772e-012	1.438784e-001	2.877568e-001	0.000000e+000
2.502057142857144e-001	-1.327561e-001	4.097498e-012	1.327561e-001	2.655122e-001	0.000000e+000
2.582400000000001e-001	-1.226913e-001	-9.141993e-016	1.226913e-001	2.453826e-001	0.000000e+000
2.592400000000001e-001	-1.214700e-001	-6.210310e-016	1.214700e-001	2.429401e-001	0.000000e+000
2.683828571428573e-001	-1.110296e-001	-3.435966e-016	1.110296e-001	2.220593e-001	0.000000e+000
2.775257142857144e-001	-1.013343e-001	-1.291500e-016	1.013343e-001	2.026686e-001	0.000000e+000
2.866685714285716e-001	-9.238402e-002	2.230877e-017	9.238402e-002	1.847680e-001	0.000000e+000
2.958114285714287e-001	-8.417880e-002	1.107797e-016	8.417880e-002	1.683576e-001	0.000000e+000
3.049542857142858e-001	-7.671864e-002	1.362627e-016	7.671864e-002	1.534373e-001	0.000000e+000
3.140971428571430e-001	-7.000353e-002	9.875792e-017	7.000353e-002	1.400071e-001	0.000000e+000
3.232400000000001e-001	-6.403349e-002	-1.734723e-018	6.403349e-002	1.280670e-001	0.000000e+000
3.323828571428573e-001	-5.852978e-002	2.915777e-018	5.852978e-002	1.170596e-001	0.000000e+000
3.415257142857144e-001	-5.341884e-002	6.676958e-018	5.341884e-002	1.068377e-001	0.000000e+000
3.506685714285716e-001	-4.870066e-002	9.548818e-018	4.870066e-002	9.740133e-002	0.000000e+000
3.598114285714288e-001	-4.437524e-002	1.153136e-017	4.437524e-002	8.875049e-002	0.000000e+000
3.689542857142859e-001	-4.044258e-002	1.262458e-017	4.044258e-002	8.088517e-002	0.000000e+000
3.780971428571431e-001	-3.690269e-002	1.282848e-017	3.690269e-002	7.380537e-002	0.000000e+000
3.872400000000002e-001	-3.375555e-002	1.214306e-017	3.375555e-002	6.751110e-002	0.000000e+000
3.963828571428574e-001	-3.085425e-002	1.026365e-018	3.085425e-002	6.170849e-002	0.000000e+000
4.055257142857145e-001	-2.815999e-002	-4.237016e-018	2.815999e-002	5.631998e-002	0.000000e+000
4.146685714285717e-001	-2.567278e-002	-3.647076e-018	2.567278e-002	5.134556e-002	0.000000e+000
4.238114285714288e-001	-2.339262e-002	2.796182e-018	2.339262e-002	4.678523e-002	0.000000e+000
4.329542857142860e-001	-2.131950e-002	1.509276e-017	2.131950e-002	4.263899e-002	0.000000e+000
4.420971428571431e-001	-1.945342e-002	3.324266e-017	1.945342e-002	3.890685e-002	0.000000e+000
4.512400000000003e-001	-1.779439e-002	5.724587e-017	1.779439e-002	3.558879e-002	0.000000e+000
4.603828571428574e-001	-1.626496e-002	3.818101e-017	1.626496e-002	3.252992e-002	0.000000e+000
4.695257142857146e-001	-1.484467e-002	2.282770e-017	1.484467e-002	2.968934e-002	0.000000e+000
4.786685714285717e-001	-1.353353e-002	1.118597e-017	1.353353e-002	2.706705e-002	0.000000e+000
4.878114285714288e-001	-1.233153e-002	3.255807e-018	1.233153e-002	2.466305e-002	0.000000e+000
4.969542857142860e-001	-1.123867e-002	-9.627895e-019	1.123867e-002	2.247734e-002	0.000000e+000
5.060971428571431e-001	-1.025496e-002	-1.469817e-018	1.025496e-002	2.050992e-002	0.000000e+000
5.152400000000003e-001	-9.380397e-003	1.734723e-018	9.380397e-003	1.876079e-002	0.000000e+000
5.213828571428574e-001	-8.825819e-003	8.175786e-018	8.825819e-003	1.765164e-002	0.000000e+000
5.275257142857146e-001	-8.299937e-003	1.114813e-017	8.299937e-003	1.659987e-002	0.000000e+000
5.336685714285717e-001	-7.802751e-003	1.065177e-017	7.802751e-003	1.560550e-002	0.000000e+000
5.398114285714288e-001	-7.334260e-003	6.686684e-018	7.334260e-003	1.466852e-002	0.000000e+000
5.459542857142861e-001	-6.894465e-003	-7.471128e-019	6.894465e-003	1.378893e-002	0.000000e+000
5.520971428571432e-001	-6.483366e-003	-1.164962e-017	6.483366e-003	1.296673e-002	0.000000e+000
5.582400000000003e-001	-6.100963e-003	-2.602085e-017	6.100963e-003	1.220193e-002	0.000000e+000
5.592400000000003e-001	-6.040232e-003	-2.602085e-017	6.040232e-003	1.208046e-002	0.000000e+000
5.683828571428574e-001	-5.521072e-003	-1.386366e-017	5.521072e-003	1.104214e-002	0.000000e+000
5.775257142857146e-001	-5.038961e-003	-4.354557e-018	5.038961e-003	1.007792e-002	0.000000e+000
5.866685714285718e-001	-4.593898e-003	2.506442e-018	4.593898e-003	9.187797e-003	0.000000e+000
5.958114285714289e-001	-4.185885e-003	6.719341e-018	4.185885e-003	8.371769e-003	0.000000e+000
6.049542857142861e-001	-3.814920e-003	8.284142e-018	3.814920e-003	7.629840e-003	0.000000e+000
6.140971428571432e-001	-3.481004e-003	7.200844e-018	3.481004e-003	6.962007e-003	0.000000e+000
6.232400000000004e-001	-3.184136e-003	3.469447e-018	3.184136e-003	6.368273e-003	0.000000e+000
6.323828571428575e-001	-2.910459e-003	3.145179e-018	2.910459e-003	5.820918e-003	0.000000e+000
6.415257142857147e-001	-2.656312e-003	2.515970e-018	2.656312e-003	5.312623e-003	0.000000e+000
6.506685714285718e-001	-2.421695e-003	1.581822e-018	2.421695e-003	4.843389e-003	0.000000e+000
6.598114285714289e-001	-2.206609e-003	3.427340e-019	2.206609e-003	4.413217e-003	0.000000e+000
6.689542857142862e-001	-2.011053e-003	-1.201294e-018	2.011053e-003	4.022105e-003	0.000000e+000
6.780971428571433e-001	-1.835027e-003	-3.050262e-018	1.835027e-003	3.670054e-003	0.000000e+000
6.872400000000004e-001	-1.678532e-003	-5.204170e-018	1.678532e-003	3.357065e-003	0.000000e+000
6.963828571428575e-001	-1.534262e-003	-2.802759e-018	1.534262e-003	3.068524e-003	0.000000e+000
7.055257142857148e-001	-1.400287e-003	-1.201818e-018	1.400287e-003	2.800574e-003	0.000000e+000
7.146685714285719e-001	-1.276608e-003	-4.013475e-019	1.276608e-003	2.553215e-003	0.000000e+000
7.238114285714290e-001	-1.163224e-003	-4.013475e-019	1.163224e-003	2.326448e-003	0.000000e+000
7.329542857142862e-001	-1.060136e-003	-1.201818e-018	1.060136e-003	2.120271e-003	0.000000e+000
7.420971428571433e-001	-9.673431e-004	-2.802759e-018	9.673432e-004	1.934686e-003	0.000000e+000
7.512400000000005e-001	-8.848461e-004	-5.204170e-018	8.848461e-004	1.769692e-003	0.000000e+000
7.603828571428576e-001	-8.087933e-004	-2.920902e-018	8.087933e-004	1.617587e-003	0.000000e+000
7.695257142857148e-001	-7.381678e-004	-1.068299e-018	7.381678e-004	1.476336e-003	0.000000e+000
7.786685714285719e-001	-6.729697e-004	3.536375e-019	6.729696e-004	1.345939e-003	0.000000e+000
7.878114285714291e-001	-6.131989e-004	1.344908e-018	6.131989e-004	1.226398e-003	0.000000e+000
7.969542857142863e-001	-5.588555e-004	1.905513e-018	5.588554e-004	1.117711e-003	0.000000e+000
8.060971428571434e-001	-5.099394e-004	2.035451e-018	5.099394e-004	1.019879e-003	0.000000e+000
8.152400000000005e-001	-4.664507e-004	1.734723e-018	4.664507e-004	9.329015e-004	0.000000e+000
8.213828571428576e-001	-4.388737e-004	7.764547e-019	4.388737e-004	8.777475e-004	0.000000e+000
8.275257142857149e-001	-4.127237e-004	1.376088e-019	4.127237e-004	8.254473e-004	0.000000e+000
8.336685714285720e-001	-3.880005e-004	-1.818141e-019	3.880005e-004	7.760010e-004	0.000000e+000
8.398114285714291e-001	-3.647043e-004	-1.818141e-019	3.647043e-004	7.294086e-004	0.000000e+000
8.459542857142863e-001	-3.428350e-004	1.376088e-019	3.428350e-004	6.856700e-004	0.000000e+000
8.520971428571434e-001	-3.223926e-004	7.764547e-019	3.223926e-004	6.447852e-004	0.000000e+000
8.582400000000006e-001	-3.033772e-004	1.734723e-018	3.033772e-004	6.067543e-004	0.000000e+000
8.592400000000006e-001	-3.003573e-004	0.000000e+000	3.003573e-004	6.007146e-004	0.000000e+000
8.685257142857149e-001	-2.741690e-004	4.688209e-019	2.741690e-004	5.483379e-004	0.000000e+000
8.778114285714291e-001	-2.498720e-004	6.987623e-019	2.498720e-004	4.997441e-004	0.000000e+000
8.870971428571435e-001	-2.274665e-004	6.898242e-019	2.274665e-004	4.549331e-004	0.000000e+000
8.963828571428577e-001	-2.069524e-004	4.420066e-019	2.069524e-004	4.139049e-004	0.000000e+000
9.056685714285720e-001	-1.883298e-004	-4.469058e-020	1.883298e-004	3.766595e-004	0.000000e+000
9.149542857142864e-001	-1.715985e-004	-7.702673e-019	1.715985e-004	3.431970e-004	0.000000e+000
9.242400000000006e-001	-1.567586e-004	-1.734723e-018	1.567586e-004	3.135173e-004	0.000000e+000
9.336685714285721e-001	-1.428969e-004	-1.142248e-018	1.428969e-004	2.857938e-004	0.000000e+000
9.430971428571435e-001	-1.300481e-004	-5.820521e-019	1.300481e-004	2.600962e-004	0.000000e+000
9.525257142857150e-001	-1.182123e-004	-5.413668e-020	1.182123e-004	2.364247e-004	0.000000e+000
9.619542857142864e-001	-1.073895e-004	4.414986e-019	1.073895e-004	2.147791e-004	0.000000e+000
9.713828571428578e-001	-9.757973e-005	9.048537e-019	9.757973e-005	1.951595e-004	0.000000e+000
9.808114285714292e-001	-8.878291e-005	1.335929e-018	8.878291e-005	1.775658e-004	0.000000e+000
9.902400000000007e-001	-8.099908e-005	1.734723e-018	8.099908e-005	1.619982e-004	0.000000e+000
9.999542857142855e-001	-7.363704e-005	7.974155e-019	7.363704e-005	1.472741e-004	0.000000e+000
1.009668571428570e+000	-6.682544e-005	1.725435e-019	6.682544e-005	1.336509e-004	0.000000e+000
1.019382857142855e+000	-6.056428e-005	-1.398925e-019	6.056428e-005	1.211286e-004	0.000000e+000
1.029097142857140e+000	-5.485357e-005	-1.398925e-019	5.485357e-005	1.097071e-004	0.000000e+000
1.038811428571425e+000	-4.969331e-005	1.725435e-019	4.969331e-005	9.938662e-005	0.000000e+000
1.048525714285709e+000	-4.508349e-005	7.974155e-019	4.508349e-005	9.016698e-005	0.000000e+000
1.058239999999994e+000	-4.102412e-005	1.734723e-018	4.102412e-005	8.204824e-005	0.000000e+000
1.068382857142850e+000	-3.714492e-005	5.404637e-019	3.714492e-005	7.428984e-005	0.000000e+000
1.078525714285706e+000	-3.356542e-005	-2.557095e-019	3.356542e-005	6.713085e-005	0.000000e+000
1.088668571428562e+000	-3.028563e-005	-6.537961e-019	3.028563e-005	6.057125e-005	0.000000e+000
1.098811428571418e+000	-2.730553e-005	-6.537961e-019	2.730553e-005	5.461105e-005	0.000000e+000
1.108954285714275e+000	-2.462513e-005	-2.557095e-019	2.462513e-005	4.925025e-005	0.000000e+000
1.119097142857131e+000	-2.224442e-005	5.404637e-019	2.224442e-005	4.448885e-005	0.000000e+000
1.129239999999987e+000	-2.016342e-005	1.734723e-018	2.016342e-005	4.032685e-005	0.000000e+000
1.133382857142843e+000	-1.934799e-005	1.047828e-018	1.934799e-005	3.869598e-005	0.000000e+000
1.137525714285700e+000	-1.856257e-005	4.246861e-019	1.856257e-005	3.712514e-005	0.000000e+000
1.141668571428557e+000	-1.780717e-005	-1.347026e-019	1.780717e-005	3.561435e-005	0.000000e+000
1.145811428571413e+000	-1.708180e-005	-6.303378e-019	1.708180e-005	3.416359e-005	0.000000e+000
1.149954285714270e+000	-1.638643e-005	-1.062220e-018	1.638643e-005	3.277287e-005	0.000000e+000
1.154097142857127e+000	-1.572109e-005	-1.430348e-018	1.572109e-005	3.144218e-005	0.000000e+000
1.158239999999983e+000	-1.508577e-005	-1.734723e-018	1.508577e-005	3.017154e-005	0.000000e+000
1.159239999999983e+000	-1.493560e-005	-1.734723e-018	1.493560e-005	2.987120e-005	0.000000e+000
1.171097142857125e+000	-1.330889e-005	-8.870034e-019	1.330889e-005	2.661777e-005	0.000000e+000
1.182954285714266e+000	-1.182321e-005	-2.392507e-019	1.182321e-005	2.364642e-005	0.000000e+000
1.194811428571408e+000	-1.047858e-005	2.085344e-019	1.047858e-005	2.095715e-005	0.000000e+000
1.206668571428549e+000	-9.274985e-006	4.563520e-019	9.274985e-006	1.854997e-005	0.000000e+000
1.218525714285691e+000	-8.212433e-006	5.042022e-019	8.212433e-006	1.642487e-005	0.000000e+000
1.230382857142833e+000	-7.290922e-006	3.520848e-019	7.290922e-006	1.458184e-005	0.000000e+000
1.242239999999974e+000	-6.510451e-006	0.000000e+000	6.510451e-006	1.302090e-005	0.000000e+000
1.256668571428544e+000	-5.667431e-006	-4.879997e-020	5.667431e-006	1.133486e-005	0.000000e+000
1.271097142857114e+000	-4.908265e-006	-8.133329e-020	4.908265e-006	9.816530e-006	0.000000e+000
1.285525714285684e+000	-4.232953e-006	-9.759995e-020	4.232953e-006	8.465906e-006	0.000000e+000
1.299954285714253e+000	-3.641496e-006	-9.759995e-020	3.641496e-006	7.282992e-006	0.000000e+000
1.314382857142823e+000	-3.133894e-006	-8.133329e-020	3.133894e-006	6.267787e-006	0.000000e+000
1.328811428571393e+000	-2.710146e-006	-4.879997e-020	2.710146e-006	5.420292e-006	0.000000e+000
1.343239999999963e+000	-2.370252e-006	0.000000e+000	2.370252e-006	4.740505e-006	0.000000e+000
1.359668571428533e+000	-2.027309e-006	2.318694e-019	2.027309e-006	4.054619e-006	0.000000e+000
1.376097142857102e+000	-1.721533e-006	3.038431e-019	1.721533e-006	3.443067e-006	0.000000e+000
1.392525714285672e+000	-1.452924e-006	2.159211e-019	1.452924e-006	2.905849e-006	0.000000e+000
1.408954285714241e+000	-1.221482e-006	-3.189654e-020	1.221482e-006	2.442964e-006	0.000000e+000
1.425382857142811e+000	-1.027207e-006	-4.396099e-019	1.027207e-006	2.054414e-006	0.000000e+000
1.441811428571381e+000	-8.700983e-007	-1.007219e-018	8.700983e-007	1.740197e-006	0.000000e+000
1.458239999999950e+000	-7.501566e-007	-1.734723e-018	7.501567e-007	1.500313e-006	0.000000e+000
1.459239999999950e+000	-7.426895e-007	-1.734723e-018	7.426895e-007	1.485379e-006	0.000000e+000
1.491239999999947e+000	-5.641059e-007	-9.781255e-019	5.641059e-007	1.128212e-006	0.000000e+000
1.523239999999943e+000	-4.134457e-007	-3.911210e-019	4.134457e-007	8.268914e-007	0.000000e+000
1.555239999999940e+000	-2.907087e-007	2.629008e-020	2.907087e-007	5.814174e-007	0.000000e+000
1.587239999999936e+000	-1.958950e-007	2.741077e-019	1.958950e-007	3.917899e-007	0.000000e+000
1.619239999999933e+000	-1.290045e-007	3.523319e-019	1.290045e-007	2.580090e-007	0.000000e+000
1.651239999999929e+000	-9.003727e-008	2.609627e-019	9.003727e-008	1.800745e-007	0.000000e+000
1.683239999999926e+000	-7.899332e-008	0.000000e+000	7.899332e-008	1.579866e-007	0.000000e+000
1.759239999999917e+000	-3.693106e-008	0.000000e+000	3.693106e-008	7.386212e-008	0.000000e+000
1.999000000000000e+000	-3.355054e-009	4.731064e-019	3.355054e-009	6.710108e-009	0.000000e+000
2.000000000000000e+000	-3.338292e-009	-3.469447e-018	3.360735e-009	6.643188e-009	0.000000e+000
